Id,Time[ns],0:I²C: Address/Data
0,2020761000.00000000000000000000,Start
1,2020762000.00000000000000000000,Stop
2,5700885000.00000000000000000000,Start
3,5700965000.00000000000000000000,Write
4,5700895000.00000000000000000000,Address write: 1A
5,5700975000.00000000000000000000,ACK
6,5700990000.00000000000000000000,Data write: 00
7,5701070000.00000000000000000000,ACK
8,5701082000.00000000000000000000,Data write: 00
9,5701162000.00000000000000000000,ACK
10,5701182000.00000000000000000000,Stop
11,5701204000.00000000000000000000,Start
12,5701284000.00000000000000000000,Write
13,5701214000.00000000000000000000,Address write: 1A
14,5701294000.00000000000000000000,ACK
15,5701306000.00000000000000000000,Data write: 02
16,5701386000.00000000000000000000,ACK
17,5701397000.00000000000000000000,Data write: 0D
18,5701477000.00000000000000000000,ACK
19,5701497000.00000000000000000000,Stop
20,5701514000.00000000000000000000,Start
21,5701594000.00000000000000000000,Write
22,5701523000.00000000000000000000,Address write: 1A
23,5701604000.00000000000000000000,ACK
24,5701615000.00000000000000000000,Data write: 04
25,5701695000.00000000000000000000,ACK
26,5701707000.00000000000000000000,Data write: 00
27,5701787000.00000000000000000000,ACK
28,5701807000.00000000000000000000,Stop
29,5701823000.00000000000000000000,Start
30,5701903000.00000000000000000000,Write
31,5701833000.00000000000000000000,Address write: 1A
32,5701913000.00000000000000000000,ACK
33,5701925000.00000000000000000000,Data write: 06
34,5702005000.00000000000000000000,ACK
35,5702017000.00000000000000000000,Data write: ED
36,5702097000.00000000000000000000,ACK
37,5702117000.00000000000000000000,Stop
38,5702133000.00000000000000000000,Start
39,5702213000.00000000000000000000,Write
40,5702143000.00000000000000000000,Address write: 1A
41,5702224000.00000000000000000000,ACK
42,5702235000.00000000000000000000,Data write: 08
43,5702315000.00000000000000000000,ACK
44,5702327000.00000000000000000000,Data write: 50
45,5702407000.00000000000000000000,ACK
46,5702427000.00000000000000000000,Stop
47,5702443000.00000000000000000000,Start
48,5702523000.00000000000000000000,Write
49,5702453000.00000000000000000000,Address write: 1A
50,5702533000.00000000000000000000,ACK
51,5702544000.00000000000000000000,Data write: 0A
52,5702625000.00000000000000000000,ACK
53,5702636000.00000000000000000000,Data write: 00
54,5702716000.00000000000000000000,ACK
55,5702736000.00000000000000000000,Stop
56,5702753000.00000000000000000000,Start
57,5702833000.00000000000000000000,Write
58,5702763000.00000000000000000000,Address write: 1A
59,5702843000.00000000000000000000,ACK
60,5702854000.00000000000000000000,Data write: 0C
61,5702935000.00000000000000000000,ACK
62,5702946000.00000000000000000000,Data write: 00
63,5703026000.00000000000000000000,ACK
64,5703046000.00000000000000000000,Stop
65,5703062000.00000000000000000000,Start
66,5703142000.00000000000000000000,Write
67,5703072000.00000000000000000000,Address write: 1A
68,5703152000.00000000000000000000,ACK
69,5703164000.00000000000000000000,Data write: 0E
70,5703244000.00000000000000000000,ACK
71,5703256000.00000000000000000000,Data write: 00
72,5703336000.00000000000000000000,ACK
73,5703355000.00000000000000000000,Stop
74,5703371000.00000000000000000000,Start
75,5703451000.00000000000000000000,Write
76,5703381000.00000000000000000000,Address write: 1A
77,5703461000.00000000000000000000,ACK
78,5703473000.00000000000000000000,Data write: 10
79,5703553000.00000000000000000000,ACK
80,5703564000.00000000000000000000,Data write: 00
81,5703645000.00000000000000000000,ACK
82,5703664000.00000000000000000000,Stop
83,5703686000.00000000000000000000,Start
84,5703756000.00000000000000000000,Write
85,5703696000.00000000000000000000,Address write: 1A
86,5703766000.00000000000000000000,ACK
87,5703776000.00000000000000000000,Data write: 09
88,5703858000.00000000000000000000,ACK
89,5703868000.00000000000000000000,Data write: 00
90,5703949000.00000000000000000000,ACK
91,5703979000.00000000000000000000,Stop
92,5703995000.00000000000000000000,Start
93,5704075000.00000000000000000000,Write
94,5704005000.00000000000000000000,Address write: 1A
95,5704085000.00000000000000000000,ACK
96,5704096000.00000000000000000000,Data write: 14
97,5704177000.00000000000000000000,ACK
98,5704188000.00000000000000000000,Data write: 40
99,5704268000.00000000000000000000,ACK
100,5704288000.00000000000000000000,Stop
101,5704304000.00000000000000000000,Start
102,5704384000.00000000000000000000,Write
103,5704314000.00000000000000000000,Address write: 1A
104,5704394000.00000000000000000000,ACK
105,5704405000.00000000000000000000,Data write: 16
106,5704486000.00000000000000000000,ACK
107,5704497000.00000000000000000000,Data write: FF
108,5704577000.00000000000000000000,ACK
109,5704597000.00000000000000000000,Stop
110,5704613000.00000000000000000000,Start
111,5704693000.00000000000000000000,Write
112,5704623000.00000000000000000000,Address write: 1A
113,5704703000.00000000000000000000,ACK
114,5704715000.00000000000000000000,Data write: 18
115,5704795000.00000000000000000000,ACK
116,5704806000.00000000000000000000,Data write: 00
117,5704887000.00000000000000000000,ACK
118,5704906000.00000000000000000000,Stop
119,5704923000.00000000000000000000,Start
120,5705003000.00000000000000000000,Write
121,5704933000.00000000000000000000,Address write: 1A
122,5705013000.00000000000000000000,ACK
123,5705025000.00000000000000000000,Data write: 1A
124,5705105000.00000000000000000000,ACK
125,5705116000.00000000000000000000,Data write: 00
126,5705196000.00000000000000000000,ACK
127,5705216000.00000000000000000000,Stop
128,5705232000.00000000000000000000,Start
129,5705312000.00000000000000000000,Write
130,5705242000.00000000000000000000,Address write: 1A
131,5705322000.00000000000000000000,ACK
132,5705334000.00000000000000000000,Data write: 1D
133,5705414000.00000000000000000000,ACK
134,5705426000.00000000000000000000,Data write: 00
135,5705506000.00000000000000000000,ACK
136,5705525000.00000000000000000000,Stop
137,5705542000.00000000000000000000,Start
138,5705622000.00000000000000000000,Write
139,5705552000.00000000000000000000,Address write: 1A
140,5705632000.00000000000000000000,ACK
141,5705643000.00000000000000000000,Data write: 1E
142,5705723000.00000000000000000000,ACK
143,5705735000.00000000000000000000,Data write: FF
144,5705815000.00000000000000000000,ACK
145,5705835000.00000000000000000000,Stop
146,5705851000.00000000000000000000,Start
147,5705931000.00000000000000000000,Write
148,5705861000.00000000000000000000,Address write: 1A
149,5705942000.00000000000000000000,ACK
150,5705953000.00000000000000000000,Data write: 20
151,5706033000.00000000000000000000,ACK
152,5706045000.00000000000000000000,Data write: 00
153,5706125000.00000000000000000000,ACK
154,5706144000.00000000000000000000,Stop
155,5706160000.00000000000000000000,Start
156,5706241000.00000000000000000000,Write
157,5706170000.00000000000000000000,Address write: 1A
158,5706251000.00000000000000000000,ACK
159,5706263000.00000000000000000000,Data write: 22
160,5706343000.00000000000000000000,ACK
161,5706354000.00000000000000000000,Data write: 00
162,5706434000.00000000000000000000,ACK
163,5706454000.00000000000000000000,Stop
164,5706470000.00000000000000000000,Start
165,5706550000.00000000000000000000,Write
166,5706480000.00000000000000000000,Address write: 1A
167,5706560000.00000000000000000000,ACK
168,5706572000.00000000000000000000,Data write: 25
169,5706652000.00000000000000000000,ACK
170,5706663000.00000000000000000000,Data write: 2C
171,5706743000.00000000000000000000,ACK
172,5706763000.00000000000000000000,Stop
173,5706779000.00000000000000000000,Start
174,5706859000.00000000000000000000,Write
175,5706789000.00000000000000000000,Address write: 1A
176,5706869000.00000000000000000000,ACK
177,5706881000.00000000000000000000,Data write: 26
178,5706961000.00000000000000000000,ACK
179,5706972000.00000000000000000000,Data write: 2C
180,5707052000.00000000000000000000,ACK
181,5707072000.00000000000000000000,Stop
182,5707088000.00000000000000000000,Start
183,5707168000.00000000000000000000,Write
184,5707098000.00000000000000000000,Address write: 1A
185,5707178000.00000000000000000000,ACK
186,5707189000.00000000000000000000,Data write: 28
187,5707269000.00000000000000000000,ACK
188,5707281000.00000000000000000000,Data write: 2C
189,5707361000.00000000000000000000,ACK
190,5707381000.00000000000000000000,Stop
191,5707397000.00000000000000000000,Start
192,5707477000.00000000000000000000,Write
193,5707407000.00000000000000000000,Address write: 1A
194,5707487000.00000000000000000000,ACK
195,5707500000.00000000000000000000,Data write: 2A
196,5707580000.00000000000000000000,ACK
197,5707591000.00000000000000000000,Data write: 2C
198,5707671000.00000000000000000000,ACK
199,5707691000.00000000000000000000,Stop
200,5707708000.00000000000000000000,Start
201,5707788000.00000000000000000000,Write
202,5707718000.00000000000000000000,Address write: 1A
203,5707798000.00000000000000000000,ACK
204,5707809000.00000000000000000000,Data write: 2C
205,5707889000.00000000000000000000,ACK
206,5707901000.00000000000000000000,Data write: 2C
207,5707981000.00000000000000000000,ACK
208,5708001000.00000000000000000000,Stop
209,5708017000.00000000000000000000,Start
210,5708097000.00000000000000000000,Write
211,5708027000.00000000000000000000,Address write: 1A
212,5708107000.00000000000000000000,ACK
213,5708119000.00000000000000000000,Data write: 2E
214,5708199000.00000000000000000000,ACK
215,5708210000.00000000000000000000,Data write: 00
216,5708291000.00000000000000000000,ACK
217,5708310000.00000000000000000000,Stop
218,5708327000.00000000000000000000,Start
219,5708407000.00000000000000000000,Write
220,5708337000.00000000000000000000,Address write: 1A
221,5708417000.00000000000000000000,ACK
222,5708428000.00000000000000000000,Data write: 30
223,5708508000.00000000000000000000,ACK
224,5708520000.00000000000000000000,Data write: 32
225,5708600000.00000000000000000000,ACK
226,5708619000.00000000000000000000,Stop
227,5708635000.00000000000000000000,Start
228,5708716000.00000000000000000000,Write
229,5708645000.00000000000000000000,Address write: 1A
230,5708726000.00000000000000000000,ACK
231,5708737000.00000000000000000000,Data write: 32
232,5708817000.00000000000000000000,ACK
233,5708829000.00000000000000000000,Data write: 00
234,5708909000.00000000000000000000,ACK
235,5708928000.00000000000000000000,Stop
236,5708947000.00000000000000000000,Start
237,5709027000.00000000000000000000,Write
238,5708957000.00000000000000000000,Address write: 1A
239,5709037000.00000000000000000000,ACK
240,5709049000.00000000000000000000,Data write: 34
241,5709129000.00000000000000000000,ACK
242,5709141000.00000000000000000000,Data write: 00
243,5709221000.00000000000000000000,ACK
244,5709240000.00000000000000000000,Stop
245,5709256000.00000000000000000000,Start
246,5709337000.00000000000000000000,Write
247,5709266000.00000000000000000000,Address write: 1A
248,5709347000.00000000000000000000,ACK
249,5709358000.00000000000000000000,Data write: 36
250,5709438000.00000000000000000000,ACK
251,5709449000.00000000000000000000,Data write: 00
252,5709530000.00000000000000000000,ACK
253,5709549000.00000000000000000000,Stop
254,5709566000.00000000000000000000,Start
255,5709646000.00000000000000000000,Write
256,5709576000.00000000000000000000,Address write: 1A
257,5709656000.00000000000000000000,ACK
258,5709667000.00000000000000000000,Data write: 38
259,5709747000.00000000000000000000,ACK
260,5709759000.00000000000000000000,Data write: 00
261,5709839000.00000000000000000000,ACK
262,5709859000.00000000000000000000,Stop
263,5709875000.00000000000000000000,Start
264,5709955000.00000000000000000000,Write
265,5709885000.00000000000000000000,Address write: 1A
266,5709965000.00000000000000000000,ACK
267,5709977000.00000000000000000000,Data write: 3A
268,5710057000.00000000000000000000,ACK
269,5710068000.00000000000000000000,Data write: 00
270,5710148000.00000000000000000000,ACK
271,5710168000.00000000000000000000,Stop
272,5710185000.00000000000000000000,Start
273,5710265000.00000000000000000000,Write
274,5710195000.00000000000000000000,Address write: 1A
275,5710275000.00000000000000000000,ACK
276,5710287000.00000000000000000000,Data write: 3C
277,5710367000.00000000000000000000,ACK
278,5710378000.00000000000000000000,Data write: 00
279,5710458000.00000000000000000000,ACK
280,5710478000.00000000000000000000,Stop
281,5710494000.00000000000000000000,Start
282,5710574000.00000000000000000000,Write
283,5710504000.00000000000000000000,Address write: 1A
284,5710584000.00000000000000000000,ACK
285,5710596000.00000000000000000000,Data write: 3E
286,5710676000.00000000000000000000,ACK
287,5710687000.00000000000000000000,Data write: 00
288,5710767000.00000000000000000000,ACK
289,5710787000.00000000000000000000,Stop
290,5710803000.00000000000000000000,Start
291,5710883000.00000000000000000000,Write
292,5710813000.00000000000000000000,Address write: 1A
293,5710893000.00000000000000000000,ACK
294,5710905000.00000000000000000000,Data write: 40
295,5710985000.00000000000000000000,ACK
296,5710996000.00000000000000000000,Data write: 38
297,5711077000.00000000000000000000,ACK
298,5711096000.00000000000000000000,Stop
299,5711112000.00000000000000000000,Start
300,5711192000.00000000000000000000,Write
301,5711122000.00000000000000000000,Address write: 1A
302,5711202000.00000000000000000000,ACK
303,5711214000.00000000000000000000,Data write: 42
304,5711294000.00000000000000000000,ACK
305,5711305000.00000000000000000000,Data write: 0B
306,5711386000.00000000000000000000,ACK
307,5711405000.00000000000000000000,Stop
308,5711421000.00000000000000000000,Start
309,5711502000.00000000000000000000,Write
310,5711431000.00000000000000000000,Address write: 1A
311,5711512000.00000000000000000000,ACK
312,5711523000.00000000000000000000,Data write: 44
313,5711603000.00000000000000000000,ACK
314,5711615000.00000000000000000000,Data write: 32
315,5711695000.00000000000000000000,ACK
316,5711715000.00000000000000000000,Stop
317,5711731000.00000000000000000000,Start
318,5711811000.00000000000000000000,Write
319,5711741000.00000000000000000000,Address write: 1A
320,5711821000.00000000000000000000,ACK
321,5711833000.00000000000000000000,Data write: 46
322,5711913000.00000000000000000000,ACK
323,5711924000.00000000000000000000,Data write: 00
324,5712004000.00000000000000000000,ACK
325,5712024000.00000000000000000000,Stop
326,5712040000.00000000000000000000,Start
327,5712120000.00000000000000000000,Write
328,5712050000.00000000000000000000,Address write: 1A
329,5712130000.00000000000000000000,ACK
330,5712142000.00000000000000000000,Data write: 48
331,5712222000.00000000000000000000,ACK
332,5712233000.00000000000000000000,Data write: 08
333,5712313000.00000000000000000000,ACK
334,5712333000.00000000000000000000,Stop
335,5712349000.00000000000000000000,Start
336,5712429000.00000000000000000000,Write
337,5712359000.00000000000000000000,Address write: 1A
338,5712439000.00000000000000000000,ACK
339,5712451000.00000000000000000000,Data write: 4A
340,5712531000.00000000000000000000,ACK
341,5712542000.00000000000000000000,Data write: 0C
342,5712623000.00000000000000000000,ACK
343,5712642000.00000000000000000000,Stop
344,5712658000.00000000000000000000,Start
345,5712738000.00000000000000000000,Write
346,5712668000.00000000000000000000,Address write: 1A
347,5712748000.00000000000000000000,ACK
348,5712760000.00000000000000000000,Data write: 4C
349,5712840000.00000000000000000000,ACK
350,5712851000.00000000000000000000,Data write: 93
351,5712931000.00000000000000000000,ACK
352,5712951000.00000000000000000000,Stop
353,5712967000.00000000000000000000,Start
354,5713047000.00000000000000000000,Write
355,5712977000.00000000000000000000,Address write: 1A
356,5713057000.00000000000000000000,ACK
357,5713068000.00000000000000000000,Data write: 4E
358,5713149000.00000000000000000000,ACK
359,5713160000.00000000000000000000,Data write: E9
360,5713240000.00000000000000000000,ACK
361,5713260000.00000000000000000000,Stop
362,5713279000.00000000000000000000,Start
363,5713349000.00000000000000000000,Write
364,5713289000.00000000000000000000,Address write: 1A
365,5713359000.00000000000000000000,ACK
366,5713369000.00000000000000000000,Data write: 28
367,5713451000.00000000000000000000,ACK
368,5713461000.00000000000000000000,Data write: 00
369,5713543000.00000000000000000000,ACK
370,5713572000.00000000000000000000,Stop
371,5713588000.00000000000000000000,Start
372,5713668000.00000000000000000000,Write
373,5713598000.00000000000000000000,Address write: 1A
374,5713678000.00000000000000000000,ACK
375,5713690000.00000000000000000000,Data write: 52
376,5713770000.00000000000000000000,ACK
377,5713782000.00000000000000000000,Data write: 00
378,5713862000.00000000000000000000,ACK
379,5713881000.00000000000000000000,Stop
380,5713898000.00000000000000000000,Start
381,5713978000.00000000000000000000,Write
382,5713908000.00000000000000000000,Address write: 1A
383,5713988000.00000000000000000000,ACK
384,5714000000.00000000000000000000,Data write: 54
385,5714080000.00000000000000000000,ACK
386,5714091000.00000000000000000000,Data write: 00
387,5714171000.00000000000000000000,ACK
388,5714191000.00000000000000000000,Stop
389,5714207000.00000000000000000000,Start
390,5714288000.00000000000000000000,Write
391,5714217000.00000000000000000000,Address write: 1A
392,5714298000.00000000000000000000,ACK
393,5714309000.00000000000000000000,Data write: 56
394,5714389000.00000000000000000000,ACK
395,5714401000.00000000000000000000,Data write: 00
396,5714481000.00000000000000000000,ACK
397,5714500000.00000000000000000000,Stop
398,5714516000.00000000000000000000,Start
399,5714596000.00000000000000000000,Write
400,5714526000.00000000000000000000,Address write: 1A
401,5714606000.00000000000000000000,ACK
402,5714618000.00000000000000000000,Data write: 58
403,5714698000.00000000000000000000,ACK
404,5714709000.00000000000000000000,Data write: 03
405,5714790000.00000000000000000000,ACK
406,5714809000.00000000000000000000,Stop
407,5714825000.00000000000000000000,Start
408,5714905000.00000000000000000000,Write
409,5714835000.00000000000000000000,Address write: 1A
410,5714915000.00000000000000000000,ACK
411,5714927000.00000000000000000000,Data write: 5A
412,5715007000.00000000000000000000,ACK
413,5715018000.00000000000000000000,Data write: 10
414,5715098000.00000000000000000000,ACK
415,5715118000.00000000000000000000,Stop
416,5715134000.00000000000000000000,Start
417,5715214000.00000000000000000000,Write
418,5715144000.00000000000000000000,Address write: 1A
419,5715224000.00000000000000000000,ACK
420,5715235000.00000000000000000000,Data write: 5C
421,5715316000.00000000000000000000,ACK
422,5715327000.00000000000000000000,Data write: 00
423,5715407000.00000000000000000000,ACK
424,5715427000.00000000000000000000,Stop
425,5715443000.00000000000000000000,Start
426,5715523000.00000000000000000000,Write
427,5715453000.00000000000000000000,Address write: 1A
428,5715533000.00000000000000000000,ACK
429,5715545000.00000000000000000000,Data write: 5E
430,5715625000.00000000000000000000,ACK
431,5715636000.00000000000000000000,Data write: 00
432,5715716000.00000000000000000000,ACK
433,5715736000.00000000000000000000,Stop
434,5715752000.00000000000000000000,Start
435,5715832000.00000000000000000000,Write
436,5715762000.00000000000000000000,Address write: 1A
437,5715842000.00000000000000000000,ACK
438,5715854000.00000000000000000000,Data write: 60
439,5715934000.00000000000000000000,ACK
440,5715945000.00000000000000000000,Data write: 00
441,5716025000.00000000000000000000,ACK
442,5716045000.00000000000000000000,Stop
443,5716061000.00000000000000000000,Start
444,5716141000.00000000000000000000,Write
445,5716071000.00000000000000000000,Address write: 1A
446,5716151000.00000000000000000000,ACK
447,5716162000.00000000000000000000,Data write: 62
448,5716242000.00000000000000000000,ACK
449,5716254000.00000000000000000000,Data write: 02
450,5716334000.00000000000000000000,ACK
451,5716354000.00000000000000000000,Stop
452,5716370000.00000000000000000000,Start
453,5716450000.00000000000000000000,Write
454,5716380000.00000000000000000000,Address write: 1A
455,5716460000.00000000000000000000,ACK
456,5716471000.00000000000000000000,Data write: 64
457,5716551000.00000000000000000000,ACK
458,5716563000.00000000000000000000,Data write: 01
459,5716643000.00000000000000000000,ACK
460,5716662000.00000000000000000000,Stop
461,5716679000.00000000000000000000,Start
462,5716759000.00000000000000000000,Write
463,5716689000.00000000000000000000,Address write: 1A
464,5716769000.00000000000000000000,ACK
465,5716780000.00000000000000000000,Data write: 66
466,5716860000.00000000000000000000,ACK
467,5716872000.00000000000000000000,Data write: 00
468,5716952000.00000000000000000000,ACK
469,5716971000.00000000000000000000,Stop
470,5716987000.00000000000000000000,Start
471,5717067000.00000000000000000000,Write
472,5716997000.00000000000000000000,Address write: 1A
473,5717077000.00000000000000000000,ACK
474,5717089000.00000000000000000000,Data write: 68
475,5717169000.00000000000000000000,ACK
476,5717180000.00000000000000000000,Data write: 00
477,5717261000.00000000000000000000,ACK
478,5717280000.00000000000000000000,Stop
479,5717296000.00000000000000000000,Start
480,5717376000.00000000000000000000,Write
481,5717306000.00000000000000000000,Address write: 1A
482,5717386000.00000000000000000000,ACK
483,5717398000.00000000000000000000,Data write: 6A
484,5717478000.00000000000000000000,ACK
485,5717490000.00000000000000000000,Data write: 00
486,5717570000.00000000000000000000,ACK
487,5717590000.00000000000000000000,Stop
488,5717606000.00000000000000000000,Start
489,5717686000.00000000000000000000,Write
490,5717616000.00000000000000000000,Address write: 1A
491,5717696000.00000000000000000000,ACK
492,5717707000.00000000000000000000,Data write: 6C
493,5717788000.00000000000000000000,ACK
494,5717799000.00000000000000000000,Data write: 39
495,5717879000.00000000000000000000,ACK
496,5717899000.00000000000000000000,Stop
497,5717915000.00000000000000000000,Start
498,5717995000.00000000000000000000,Write
499,5717925000.00000000000000000000,Address write: 1A
500,5718005000.00000000000000000000,ACK
501,5718016000.00000000000000000000,Data write: 6E
502,5718097000.00000000000000000000,ACK
503,5718108000.00000000000000000000,Data write: 00
504,5718188000.00000000000000000000,ACK
505,5718208000.00000000000000000000,Stop
506,5718224000.00000000000000000000,Start
507,5718304000.00000000000000000000,Write
508,5718234000.00000000000000000000,Address write: 1A
509,5718314000.00000000000000000000,ACK
510,5718325000.00000000000000000000,Data write: 70
511,5718405000.00000000000000000000,ACK
512,5718417000.00000000000000000000,Data write: 01
513,5718497000.00000000000000000000,ACK
514,5718517000.00000000000000000000,Stop
515,5718758000.00000000000000000000,Start
516,5718838000.00000000000000000000,Write
517,5718768000.00000000000000000000,Address write: 1A
518,5718848000.00000000000000000000,ACK
519,5718860000.00000000000000000000,Data write: 08
520,5718940000.00000000000000000000,ACK
521,5718951000.00000000000000000000,Data write: 10
522,5719032000.00000000000000000000,ACK
523,5719051000.00000000000000000000,Stop
524,5719072000.00000000000000000000,Start
525,5719152000.00000000000000000000,Write
526,5719082000.00000000000000000000,Address write: 1A
527,5719162000.00000000000000000000,ACK
528,5719174000.00000000000000000000,Data write: 0C
529,5719254000.00000000000000000000,ACK
530,5719265000.00000000000000000000,Data write: 00
531,5719346000.00000000000000000000,ACK
532,5719365000.00000000000000000000,Stop
533,5779847000.00000000000000000000,Start
534,5779927000.00000000000000000000,Write
535,5779857000.00000000000000000000,Address write: 1A
536,5779937000.00000000000000000000,ACK
537,5779957000.00000000000000000000,Data write: 02
538,5780037000.00000000000000000000,ACK
539,5780051000.00000000000000000000,Data write: 0F
540,5780131000.00000000000000000000,ACK
541,5780152000.00000000000000000000,Stop
542,5911039000.00000000000000000000,Start
543,5911119000.00000000000000000000,Write
544,5911049000.00000000000000000000,Address write: 1A
545,5911129000.00000000000000000000,ACK
546,5911142000.00000000000000000000,Data write: 02
547,5911222000.00000000000000000000,ACK
548,5911234000.00000000000000000000,Data write: 0E
549,5911314000.00000000000000000000,ACK
550,5911333000.00000000000000000000,Stop
551,5911366000.00000000000000000000,Start
552,5911447000.00000000000000000000,Write
553,5911376000.00000000000000000000,Address write: 1A
554,5911457000.00000000000000000000,ACK
555,5911468000.00000000000000000000,Data write: 06
556,5911549000.00000000000000000000,ACK
557,5911560000.00000000000000000000,Data write: 0D
558,5911640000.00000000000000000000,ACK
559,5911658000.00000000000000000000,Stop
560,5911674000.00000000000000000000,Start
561,5911755000.00000000000000000000,Write
562,5911684000.00000000000000000000,Address write: 1A
563,5911765000.00000000000000000000,ACK
564,5911776000.00000000000000000000,Data write: 06
565,5911856000.00000000000000000000,ACK
566,5911868000.00000000000000000000,Data write: 01
567,5911948000.00000000000000000000,ACK
568,5911966000.00000000000000000000,Stop
569,5911983000.00000000000000000000,Start
570,5912063000.00000000000000000000,Write
571,5911993000.00000000000000000000,Address write: 1A
572,5912073000.00000000000000000000,ACK
573,5912086000.00000000000000000000,Data write: 06
574,5912166000.00000000000000000000,ACK
575,5912178000.00000000000000000000,Data write: 00
576,5912258000.00000000000000000000,ACK
577,5912277000.00000000000000000000,Stop
578,6020132000.00000000000000000000,Start
579,6020212000.00000000000000000000,Write
580,6020142000.00000000000000000000,Address write: 1A
581,6020222000.00000000000000000000,ACK
582,6020235000.00000000000000000000,Data write: 6C
583,6020315000.00000000000000000000,ACK
584,6020327000.00000000000000000000,Data write: 25
585,6020407000.00000000000000000000,ACK
586,6020425000.00000000000000000000,Stop
587,6020963000.00000000000000000000,Start
588,6021043000.00000000000000000000,Write
589,6020973000.00000000000000000000,Address write: 1A
590,6021053000.00000000000000000000,ACK
591,6021065000.00000000000000000000,Data write: 16
592,6021145000.00000000000000000000,ACK
593,6021157000.00000000000000000000,Data write: D7
594,6021237000.00000000000000000000,ACK
595,6021254000.00000000000000000000,Stop
